
T19DC 000:312 SEGGER J-Link V4.94h Log File (0002ms, 0279ms total)
T19DC 000:312 DLL Compiled: Nov 28 2014 17:53:34 (0002ms, 0279ms total)
T19DC 000:312 Logging started @ 2018-05-14 08:33 (0002ms, 0279ms total)
T19DC 000:314 JLINK_SetWarnOutHandler(...) (0000ms, 0279ms total)
T19DC 000:314 JLINK_OpenEx(...)
Firmware: J-Link OpenSDA 2 compiled Nov 16 2017 12:36:48
Hardware: V1.00
S/N: 621000000  returns O.K. (0276ms, 0555ms total)
T19DC 000:590 JLINK_SetErrorOutHandler(...) (0000ms, 0555ms total)
T19DC 000:590 JLINK_ExecCommand("ProjectFile = "C:\Users\WYX\Desktop\程序1.0\企业最终注释版\BuoyFreeRTOS9\MDK\JLinkSettings.ini"", ...)  returns 0x00 (0001ms, 0556ms total)
T19DC 000:602 JLINK_ExecCommand("Device = MK64FN1M0xxx12", ...)Device "MK64FN1M0XXX12" selected (1024 KB flash, 192 KB RAM).  returns 0x00 (0018ms, 0574ms total)
T19DC 000:620 JLINK_ExecCommand("DisableConnectionTimeout", ...)  returns 0x01 (0000ms, 0574ms total)
T19DC 000:620 JLINK_GetHardwareVersion()  returns 0x2710 (0000ms, 0574ms total)
T19DC 000:620 JLINK_GetDLLVersion()  returns 49408 (0000ms, 0574ms total)
T19DC 000:620 JLINK_GetFirmwareString(...) (0000ms, 0574ms total)
T19DC 000:637 JLINK_GetDLLVersion()  returns 49408 (0000ms, 0575ms total)
T19DC 000:637 JLINK_GetCompileDateTime() (0000ms, 0575ms total)
T19DC 000:641 JLINK_GetFirmwareString(...) (0000ms, 0575ms total)
T19DC 000:646 JLINK_GetHardwareVersion()  returns 0x2710 (0000ms, 0575ms total)
T19DC 000:652 JLINK_TIF_Select(JLINKARM_TIF_SWD)  returns 0x00 (0001ms, 0576ms total)
T19DC 000:653 JLINK_SetSpeed(2000) (0000ms, 0576ms total)
T19DC 000:653 JLINK_GetId() >0x108 TIF>Found SWD-DP with ID 0x2BA01477 >0x0D TIF> >0x28 TIF> >0x0D TIF> >0x28 TIF> >0x0D TIF> >0x21 TIF> >0x0D TIF> >0x21 TIF> >0x0D TIF> >0x21 TIF> >0x0D TIF> >0x21 TIF> >0x0D TIF> >0x21 TIF> >0x0D TIF> >0x21 TIF> >0x0D TIF> >0x21 TIF> >0x0D TIF> >0x21 TIF> >0x0D TIF> >0x21 TIF> >0x0D TIF> >0x21 TIF> >0x0D TIF> >0x21 TIF> >0x0D TIF> >0x21 TIF> >0x0D TIF> >0x21 TIF> >0x0D TIF> >0x21 TIF> >0x0D TIF> >0x21 TIF> >0x0D TIF> >0x21 TIF> >0x0D TIF> >0x21 TIF> >0x0D TIF>
 >0x21 TIF> >0x0D TIF> >0x21 TIF> >0x0D TIF> >0x21 TIF> >0x0D TIF> >0x21 TIF> >0x0D TIF> >0x21 TIF> >0x0D TIF> >0x21 TIF> >0x0D TIF> >0x21 TIF> >0x0D TIF> >0x21 TIF> >0x0D TIF> >0x21 TIF> >0x0D TIF> >0x21 TIF> >0x0D TIF> >0x21 TIF> >0x0D TIF> >0x21 TIF> >0x0D TIF> >0x21 TIF> >0x0D TIF> >0x21 TIF> >0x0D TIF> >0x21 TIF> >0x0D TIF> >0x21 TIF> >0x0D TIF> >0x21 TIF> >0x0D TIF> >0x21 TIF> >0x0D TIF> >0x21 TIF> >0x0D TIF> >0x21 TIF> >0x0D TIF> >0x21 TIF> >0x0D TIF> >0x21 TIF> >0x0D TIF> >0x21 TIF> >0x0D TIF>
 >0x21 TIF> >0x0D TIF> >0x21 TIF> >0x0D TIF> >0x21 TIF> >0x0D TIF> >0x21 TIF> >0x0D TIF> >0x21 TIF> >0x0D TIF> >0x21 TIF> >0x0D TIF> >0x21 TIF> >0x0D TIF> >0x21 TIF> >0x0D TIF> >0x21 TIF> >0x0D TIF> >0x21 TIF> >0x0D TIF> >0x21 TIF> >0x0D TIF> >0x21 TIF> >0x0D TIF> >0x21 TIF> >0x0D TIF> >0x21 TIF> >0x0D TIF> >0x21 TIF> >0x0D TIF> >0x21 TIF> >0x0D TIF> >0x21 TIF> >0x0D TIF> >0x21 TIF> >0x0D TIF> >0x21 TIF> >0x0D TIF> >0x21 TIF> >0x0D TIF> >0x21 TIF> >0x0D TIF> >0x21 TIF> >0x0D TIF> >0x21 TIF> >0x0D TIF>
 >0x21 TIF> >0x0D TIF> >0x21 TIF> >0x0D TIF> >0x21 TIF> >0x0D TIF> >0x21 TIF> >0x0D TIF> >0x21 TIF> >0x0D TIF> >0x21 TIF> >0x0D TIF> >0x21 TIF> >0x0D TIF> >0x21 TIF> >0x0D TIF> >0x21 TIF> >0x0D TIF> >0x21 TIF> >0x0D TIF> >0x21 TIF> >0x0D TIF> >0x21 TIF> >0x0D TIF> >0x21 TIF> >0x0D TIF> >0x21 TIF> >0x0D TIF> >0x21 TIF> >0x0D TIF> >0x21 TIF> >0x0D TIF> >0x21 TIF> >0x0D TIF> >0x21 TIF> >0x0D TIF> >0x21 TIF> >0x0D TIF> >0x21 TIF> >0x0D TIF> >0x21 TIF> >0x0D TIF> >0x21 TIF> >0x0D TIF> >0x21 TIF> >0x0D TIF>
 >0x21 TIF> >0x0D TIF> >0x21 TIF> >0x0D TIF> >0x21 TIF> >0x0D TIF> >0x21 TIF> >0x0D TIF> >0x21 TIF> >0x0D TIF> >0x21 TIF> >0x0D TIF> >0x21 TIF> >0x0D TIF> >0x21 TIF> >0x0D TIF> >0x21 TIF> >0x0D TIF> >0x21 TIF> >0x0D TIF> >0x21 TIF> >0x0D TIF> >0x21 TIF> >0x0D TIF> >0x21 TIF> >0x0D TIF> >0x21 TIF> >0x0D TIF> >0x21 TIF> >0x0D TIF> >0x21 TIF> >0x0D TIF> >0x21 TIF> >0x0D TIF> >0x21 TIF> >0x0D TIF> >0x21 TIF> >0x0D TIF> >0x21 TIF> >0x0D TIF> >0x21 TIF> >0x0D TIF> >0x21 TIF> >0x0D TIF> >0x21 TIF> >0x0D TIF>
 >0x21 TIF> >0x0D TIF> >0x21 TIF> >0x0D TIF> >0x21 TIF> >0x0D TIF> >0x21 TIF> >0x0D TIF> >0x21 TIF> >0x0D TIF> >0x21 TIF> >0x0D TIF> >0x21 TIF> >0x0D TIF> >0x21 TIF> >0x0D TIF> >0x21 TIF> >0x0D TIF> >0x21 TIF> >0x0D TIF> >0x21 TIF> >0x0D TIF> >0x21 TIF> >0x0D TIF> >0x21 TIF> >0x0D TIF> >0x21 TIF> >0x0D TIF> >0x21 TIF> >0x0D TIF> >0x21 TIF> >0x0D TIF> >0x21 TIF> >0x0D TIF> >0x21 TIF> >0x0D TIF> >0x21 TIF> >0x0D TIF> >0x21 TIF> >0x0D TIF> >0x21 TIF> >0x0D TIF> >0x21 TIF> >0x0D TIF> >0x21 TIF> >0x0D TIF>
 >0x21 TIF> >0x0D TIF> >0x21 TIF> >0x0D TIF> >0x21 TIF> >0x0D TIF> >0x21 TIF> >0x0D TIF> >0x21 TIF> >0x0D TIF> >0x21 TIF> >0x0D TIF> >0x21 TIF> >0x0D TIF> >0x21 TIF> >0x0D TIF> >0x21 TIF> >0x0D TIF> >0x21 TIF> >0x0D TIF> >0x21 TIF> >0x0D TIF> >0x21 TIF> >0x0D TIF> >0x21 TIF> >0x0D TIF> >0x21 TIF> >0x0D TIF> >0x21 TIF> >0x0D TIF> >0x21 TIF> >0x0D TIF> >0x21 TIF> >0x0D TIF> >0x21 TIF> >0x0D TIF> >0x21 TIF> >0x0D TIF> >0x21 TIF> >0x0D TIF> >0x21 TIF> >0x0D TIF> >0x21 TIF> >0x0D TIF> >0x21 TIF> >0x0D TIF>
 >0x21 TIF> >0x0D TIF> >0x21 TIF> >0x0D TIF> >0x21 TIF> >0x0D TIF> >0x21 TIF> >0x0D TIF> >0x21 TIF> >0x0D TIF> >0x21 TIF> >0x0D TIF> >0x21 TIF> >0x0D TIF> >0x21 TIF> >0x0D TIF> >0x21 TIF> >0x0D TIF> >0x21 TIF> >0x0D TIF> >0x21 TIF> >0x0D TIF> >0x21 TIF> >0x0D TIF> >0x21 TIF> >0x0D TIF> >0x21 TIF> >0x0D TIF> >0x21 TIF> >0x0D TIF> >0x21 TIF> >0x0D TIF> >0x21 TIF> >0x0D TIF> >0x21 TIF> >0x0D TIF> >0x21 TIF> >0x0D TIF> >0x21 TIF> >0x0D TIF> >0x21 TIF> >0x0D TIF> >0x21 TIF> >0x0D TIF> >0x21 TIF> >0x0D TIF>
 >0x21 TIF> >0x0D TIF> >0x21 TIF> >0x0D TIF> >0x21 TIF> >0x0D TIF> >0x21 TIF> >0x0D TIF> >0x21 TIF> >0x0D TIF> >0x21 TIF> >0x0D TIF> >0x21 TIF> >0x0D TIF> >0x21 TIF> >0x0D TIF> >0x21 TIF> >0x0D TIF> >0x21 TIF> >0x0D TIF> >0x21 TIF> >0x0D TIF> >0x21 TIF> >0x0D TIF> >0x21 TIF> >0x0D TIF> >0x21 TIF> >0x0D TIF> >0x21 TIF> >0x0D TIF> >0x21 TIF> >0x0D TIF> >0x21 TIF> >0x0D TIF> >0x21 TIF> >0x0D TIF> >0x21 TIF> >0x0D TIF> >0x21 TIF> >0x0D TIF> >0x21 TIF> >0x0D TIF> >0x21 TIF> >0x0D TIF> >0x21 TIF> >0x0D TIF>
 >0x21 TIF> >0x0D TIF> >0x21 TIF> >0x0D TIF> >0x21 TIF> >0x0D TIF> >0x21 TIF> >0x0D TIF> >0x21 TIF> >0x0D TIF> >0x21 TIF> >0x0D TIF> >0x21 TIF> >0x0D TIF> >0x21 TIF> >0x0D TIF> >0x21 TIF> >0x0D TIF> >0x21 TIF> >0x0D TIF> >0x21 TIF> >0x0D TIF> >0x21 TIF> >0x0D TIF> >0x21 TIF> >0x0D TIF> >0x21 TIF> >0x0D TIF> >0x21 TIF> >0x0D TIF> >0x21 TIF> >0x0D TIF> >0x21 TIF> >0x0D TIF> >0x21 TIF> >0x0D TIF> >0x21 TIF> >0x0D TIF> >0x21 TIF> >0x0D TIF> >0x21 TIF> >0x0D TIF> >0x21 TIF> >0x0D TIF> >0x21 TIF> >0x0D TIF>
 >0x21 TIF> >0x0D TIF> >0x21 TIF> >0x0D TIF> >0x21 TIF> >0x0D TIF> >0x21 TIF> >0x0D TIF> >0x21 TIF> >0x0D TIF> >0x21 TIF> >0x0D TIF> >0x21 TIF> >0x0D TIF> >0x21 TIF> >0x0D TIF> >0x21 TIF> >0x0D TIF> >0x21 TIF> >0x0D TIF> >0x21 TIF> >0x0D TIF> >0x21 TIF> >0x0D TIF> >0x21 TIF> >0x0D TIF> >0x21 TIF> >0x0D TIF> >0x21 TIF> >0x0D TIF> >0x21 TIF> >0x0D TIF> >0x21 TIF> >0x0D TIF> >0x21 TIF> >0x0D TIF> >0x21 TIF> >0x0D TIF> >0x21 TIF> >0x0D TIF> >0x21 TIF> >0x0D TIF> >0x21 TIF> >0x0D TIF> >0x21 TIF> >0x0D TIF>
 >0x21 TIF> >0x0D TIF> >0x21 TIF> >0x0D TIF> >0x21 TIF> >0x0D TIF> >0x21 TIF> >0x0D TIF> >0x21 TIF> >0x0D TIF> >0x21 TIF> >0x0D TIF> >0x21 TIF> >0x0D TIF> >0x21 TIF> >0x0D TIF> >0x21 TIF> >0x0D TIF> >0x21 TIF> >0x0D TIF> >0x21 TIF> >0x0D TIF> >0x21 TIF> >0x0D TIF> >0x21 TIF> >0x0D TIF> >0x21 TIF> >0x0D TIF> >0x21 TIF> >0x0D TIF> >0x21 TIF> >0x0D TIF> >0x21 TIF> >0x0D TIF> >0x21 TIF> >0x0D TIF> >0x21 TIF> >0x0D TIF> >0x21 TIF> >0x0D TIF> >0x21 TIF> >0x0D TIF> >0x21 TIF> >0x0D TIF> >0x21 TIF> >0x0D TIF>
 >0x21 TIF> >0x0D TIF> >0x21 TIF> >0x0D TIF> >0x21 TIF> >0x0D TIF> >0x21 TIF> >0x0D TIF> >0x21 TIF> >0x0D TIF> >0x21 TIF> >0x0D TIF> >0x21 TIF> >0x0D TIF> >0x21 TIF> >0x0D TIF> >0x21 TIF> >0x0D TIF> >0x21 TIF> >0x0D TIF> >0x21 TIF> >0x0D TIF> >0x21 TIF> >0x0D TIF> >0x21 TIF> >0x0D TIF> >0x21 TIF> >0x0D TIF> >0x21 TIF> >0x0D TIF> >0x21 TIF> >0x0D TIF> >0x21 TIF> >0x0D TIF> >0x21 TIF> >0x0D TIF> >0x21 TIF> >0x0D TIF> >0x21 TIF> >0x0D TIF> >0x21 TIF> >0x0D TIF> >0x21 TIF> >0x0D TIF> >0x21 TIF> >0x0D TIF>
 >0x21 TIF> >0x0D TIF> >0x21 TIF> >0x0D TIF> >0x21 TIF> >0x0D TIF> >0x21 TIF> >0x0D TIF> >0x21 TIF> >0x0D TIF> >0x21 TIF> >0x0D TIF> >0x21 TIF> >0x0D TIF> >0x21 TIF> >0x0D TIF> >0x21 TIF> >0x0D TIF> >0x21 TIF> >0x0D TIF> >0x21 TIF> >0x0D TIF> >0x21 TIF> >0x0D TIF> >0x21 TIF> >0x0D TIF> >0x21 TIF> >0x0D TIF> >0x21 TIF> >0x0D TIF> >0x21 TIF> >0x0D TIF> >0x21 TIF> >0x0D TIF> >0x21 TIF> >0x0D TIF> >0x21 TIF> >0x0D TIF> >0x21 TIF> >0x0D TIF> >0x21 TIF> >0x0D TIF> >0x21 TIF> >0x0D TIF> >0x21 TIF> >0x0D TIF>
 >0x21 TIF> >0x0D TIF> >0x21 TIF> >0x0D TIF> >0x21 TIF> >0x0D TIF> >0x21 TIF> >0x0D TIF> >0x21 TIF> >0x0D TIF> >0x21 TIF> >0x0D TIF> >0x21 TIF> >0x0D TIF> >0x21 TIF> >0x0D TIF> >0x21 TIF> >0x0D TIF> >0x21 TIF> >0x0D TIF> >0x21 TIF> >0x0D TIF> >0x21 TIF> >0x0D TIF> >0x21 TIF> >0x0D TIF> >0x21 TIF> >0x0D TIF> >0x21 TIF> >0x0D TIF> >0x21 TIF> >0x0D TIF> >0x21 TIF> >0x0D TIF> >0x21 TIF> >0x0D TIF> >0x21 TIF> >0x0D TIF> >0x21 TIF> >0x0D TIF> >0x21 TIF> >0x0D TIF> >0x21 TIF> >0x0D TIF> >0x21 TIF> >0x0D TIF>
 >0x21 TIF> >0x0D TIF> >0x21 TIF> >0x0D TIF> >0x21 TIF> >0x0D TIF> >0x21 TIF> >0x0D TIF> >0x21 TIF> >0x0D TIF> >0x21 TIF> >0x0D TIF> >0x21 TIF> >0x0D TIF> >0x21 TIF> >0x0D TIF> >0x21 TIF> >0x0D TIF> >0x21 TIF> >0x0D TIF> >0x21 TIF> >0x0D TIF> >0x21 TIF> >0x0D TIF> >0x21 TIF> >0x0D TIF> >0x21 TIF> >0x0D TIF> >0x21 TIF> >0x0D TIF> >0x21 TIF> >0x0D TIF> >0x21 TIF> >0x0D TIF> >0x21 TIF> >0x0D TIF> >0x21 TIF> >0x0D TIF> >0x21 TIF> >0x0D TIF> >0x21 TIF> >0x0D TIF> >0x21 TIF> >0x0D TIF> >0x21 TIF> >0x0D TIF>
 >0x21 TIF> >0x0D TIF> >0x21 TIF> >0x0D TIF> >0x21 TIF> >0x0D TIF> >0x21 TIF> >0x0D TIF> >0x21 TIF> >0x0D TIF> >0x21 TIF> >0x0D TIF> >0x21 TIF> >0x0D TIF> >0x21 TIF> >0x0D TIF> >0x21 TIF> >0x0D TIF> >0x21 TIF> >0x0D TIF> >0x21 TIF> >0x0D TIF> >0x21 TIF> >0x0D TIF> >0x21 TIF> >0x0D TIF> >0x21 TIF> >0x0D TIF> >0x21 TIF> >0x0D TIF> >0x21 TIF> >0x0D TIF> >0x21 TIF> >0x0D TIF> >0x21 TIF> >0x0D TIF> >0x21 TIF> >0x0D TIF> >0x21 TIF> >0x0D TIF> >0x21 TIF> >0x0D TIF> >0x21 TIF> >0x0D TIF> >0x21 TIF> >0x0D TIF>
 >0x21 TIF> >0x0D TIF> >0x21 TIF> >0x0D TIF> >0x21 TIF> >0x0D TIF> >0x21 TIF> >0x0D TIF> >0x21 TIF> >0x0D TIF> >0x21 TIF> >0x0D TIF> >0x21 TIF> >0x0D TIF> >0x21 TIF> >0x0D TIF> >0x21 TIF> >0x0D TIF> >0x21 TIF> >0x0D TIF> >0x21 TIF> >0x0D TIF> >0x21 TIF> >0x0D TIF> >0x21 TIF> >0x0D TIF> >0x21 TIF> >0x0D TIF> >0x21 TIF> >0x0D TIF> >0x21 TIF> >0x0D TIF> >0x21 TIF> >0x0D TIF> >0x21 TIF> >0x0D TIF> >0x21 TIF> >0x0D TIF> >0x21 TIF> >0x0D TIF> >0x21 TIF> >0x0D TIF> >0x21 TIF> >0x0D TIF> >0x21 TIF> >0x0D TIF>
 >0x21 TIF> >0x0D TIF> >0x21 TIF> >0x0D TIF> >0x21 TIF> >0x0D TIF> >0x21 TIF> >0x0D TIF> >0x21 TIF> >0x0D TIF> >0x21 TIF> >0x0D TIF> >0x21 TIF> >0x0D TIF> >0x21 TIF> >0x0D TIF> >0x21 TIF> >0x0D TIF> >0x21 TIF> >0x0D TIF> >0x21 TIF> >0x0D TIF> >0x21 TIF> >0x0D TIF> >0x21 TIF> >0x0D TIF> >0x21 TIF> >0x0D TIF> >0x21 TIF> >0x0D TIF> >0x21 TIF> >0x0D TIF> >0x21 TIF> >0x0D TIF> >0x21 TIF> >0x0D TIF> >0x21 TIF> >0x0D TIF> >0x21 TIF> >0x0D TIF> >0x21 TIF> >0x0D TIF> >0x21 TIF> >0x0D TIF> >0x21 TIF> >0x0D TIF>
 >0x21 TIF> >0x0D TIF> >0x21 TIF> >0x0D TIF> >0x21 TIF> >0x0D TIF> >0x21 TIF> >0x0D TIF> >0x21 TIF> >0x0D TIF> >0x21 TIF> >0x0D TIF> >0x21 TIF> >0x0D TIF> >0x21 TIF> >0x0D TIF> >0x21 TIF> >0x0D TIF> >0x21 TIF> >0x0D TIF> >0x21 TIF> >0x0D TIF> >0x21 TIF> >0x0D TIF> >0x21 TIF> >0x0D TIF> >0x21 TIF> >0x0D TIF> >0x21 TIF> >0x108 TIF>Found SWD-DP with ID 0x2BA01477 >0x0D TIF> >0x28 TIF> >0x0D TIF> >0x28 TIF> >0x0D TIF> >0x21 TIF> >0x0D TIF> >0x28 TIF> >0x0D TIF> >0x21 TIF> >0x0D TIF> >0x21 TIF> >0x0D TIF>
 >0x21 TIF> >0x0D TIF> >0x21 TIF> >0x0D TIF> >0x21 TIF> >0x0D TIF> >0x21 TIF> >0x0D TIF> >0x28 TIF> >0x0D TIF> >0x28 TIF> >0x0D TIF> >0x28 TIF> >0x0D TIF> >0x28 TIF> >0x0D TIF> >0x28 TIF> >0x0D TIF> >0x28 TIF> >0x0D TIF> >0x21 TIF> >0x0D TIF> >0x21 TIF> >0x0D TIF> >0x21 TIF> >0x0D TIF> >0x21 TIF> >0x0D TIF> >0x28 TIF> >0x0D TIF> >0x28 TIF> >0x0D TIF> >0x28 TIF> >0x0D TIF> >0x28 TIF> >0x0D TIF> >0x28 TIF> >0x0D TIF> >0x28 TIF> >0x0D TIF> >0x28 TIF> >0x0D TIF> >0x21 TIF> >0x0D TIF> >0x21 TIF> >0x0D TIF>
 >0x28 TIF> >0x108 TIF>Found SWD-DP with ID 0x2BA01477 >0x0D TIF> >0x21 TIF> >0x0D TIF> >0x28 TIF> >0x0D TIF> >0x28 TIF> >0x0D TIF> >0x21 TIF> >0x0D TIF> >0x28 TIF> >0x0D TIF> >0x21 TIF> >0x0D TIF> >0x21 TIF> >0x0D TIF> >0x21 TIF> >0x0D TIF> >0x21 TIF> >0x0D TIF> >0x28 TIF> >0x0D TIF> >0x28 TIF> >0x0D TIF> >0x21 TIF> >0x0D TIF> >0x28 TIF> >0x0D TIF> >0x28 TIF> >0x0D TIF> >0x28 TIF> >0x0D TIF> >0x21 TIF> >0x0D TIF> >0x21 TIF> >0x0D TIF> >0x28 TIF> >0x0D TIF> >0x21 TIF> >0x0D TIF> >0x21 TIF>
Found Cortex-M4 r0p1, Little endian. -- CPU_WriteMem(4 bytes @ 0xE0002000) -- CPU_ReadMem(4 bytes @ 0xE000EDF0) -- CPU_ReadMem(4 bytes @ 0xE0002000)FPUnit: 6 code (BP) slots and 2 literal slots -- CPU_ReadMem(4 bytes @ 0xE000EDFC) -- CPU_ReadMem(4 bytes @ 0xE0001000) -- CPU_WriteMem(4 bytes @ 0xE0001000) -- CPU_ReadMem(4 bytes @ 0xE000ED88) -- CPU_WriteMem(4 bytes @ 0xE000ED88) -- CPU_ReadMem(4 bytes @ 0xE000ED88) -- CPU_WriteMem(4 bytes @ 0xE000ED88) -- CPU_ReadMem(4 bytes @ 0xE00FF010)TPIU fitted.
 -- CPU_ReadMem(4 bytes @ 0xE00FF014)ETM fitted. -- CPU_ReadMem(4 bytes @ 0xE00FF018) -- CPU_ReadMem(4 bytes @ 0xE0042FE0) -- CPU_ReadMem(4 bytes @ 0xE0042FE4)ETB present. -- CPU_ReadMem(4 bytes @ 0xE00FF01C) -- CPU_ReadMem(4 bytes @ 0xE0043FE0) -- CPU_ReadMem(4 bytes @ 0xE0043FE4)CSTF present. -- CPU_ReadMem(4 bytes @ 0xE00FF020) -- CPU_ReadMem(2 bytes @ 0x40052000) -- CPU_ReadMem(8 bytes @ 0x20000000) -- CPU_WriteMem(8 bytes @ 0x20000000) -- CPU_WriteMem(8 bytes @ 0x20000000) >0x0D TIF> >0x21 TIF>
  returns 0x2BA01477 (0458ms, 1034ms total)
T19DC 001:111 JLINK_GetDeviceFamily()  returns 14 (0000ms, 1034ms total)
T19DC 001:113 JLINK_ReadMem (0xE00FFFF0, 0x0010 Bytes, ...) -- CPU_ReadMem(16 bytes @ 0xE00FFFF0) - Data: 0D 00 00 00 10 00 00 00 05 00 00 00 B1 00 00 00  returns 0x00 (0001ms, 1035ms total)
T19DC 001:114 JLINK_ReadMem (0xE00FFFD0, 0x0020 Bytes, ...) -- CPU_ReadMem(32 bytes @ 0xE00FFFD0) - Data: 04 00 00 00 00 00 00 00 00 00 00 00 00 00 00 00 ...  returns 0x00 (0000ms, 1035ms total)
T19DC 001:114 JLINK_ReadMem (0xE00FF000, 0x0018 Bytes, ...) -- CPU_ReadMem(24 bytes @ 0xE00FF000) - Data: 03 F0 F0 FF 03 20 F0 FF 03 30 F0 FF 03 10 F0 FF ...  returns 0x00 (0001ms, 1036ms total)
T19DC 001:115 JLINK_ReadMemU32(0xE000ED00, 0x0001 Items, ...) -- CPU_ReadMem(4 bytes @ 0xE000ED00) - Data: 41 C2 0F 41  returns 0x01 (0001ms, 1037ms total)
T19DC 001:116 JLINK_ReadMemU32(0xE000EF40, 0x0001 Items, ...) -- CPU_ReadMem(4 bytes @ 0xE000EF40) - Data: 21 00 11 10  returns 0x01 (0000ms, 1037ms total)
T19DC 001:116 JLINK_ReadMemU32(0xE000EF44, 0x0001 Items, ...) -- CPU_ReadMem(4 bytes @ 0xE000EF44) - Data: 11 00 00 11  returns 0x01 (0001ms, 1038ms total)
T19DC 001:117 JLINK_SetResetType(JLINKARM_RESET_TYPE_NORMAL)  returns JLINKARM_RESET_TYPE_SOFT (0000ms, 1038ms total)
T19DC 001:117 JLINK_Reset() -- CPU_WriteMem(4 bytes @ 0xE000EDF0) -- CPU_WriteMem(4 bytes @ 0xE000EDFC) >0x35 TIF> -- CPU_WriteMem(4 bytes @ 0xE000ED0C) -- CPU_ReadMem(4 bytes @ 0xE000EDF0) -- CPU_ReadMem(4 bytes @ 0xE000EDF0) -- CPU_WriteMem(4 bytes @ 0xE000EDF0) -- CPU_WriteMem(4 bytes @ 0xE000EDFC) -- CPU is running -- CPU_ReadMem(4 bytes @ 0xE000EDF0) -- CPU_ReadMem(8 bytes @ 0x20000000) -- CPU_WriteMem(8 bytes @ 0x20000000) -- CPU_WriteMem(8 bytes @ 0x20000000) -- CPU_WriteMem(4 bytes @ 0xE0002000)
 -- CPU_ReadMem(4 bytes @ 0xE000EDFC) -- CPU_ReadMem(4 bytes @ 0xE0001000) (0028ms, 1066ms total)
T19DC 001:145 JLINK_Halt()  returns 0x00 (0000ms, 1066ms total)
T19DC 001:145 JLINK_IsHalted()  returns TRUE (0000ms, 1066ms total)
T19DC 001:145 JLINK_ReadMemU32(0xE000EDF0, 0x0001 Items, ...) -- CPU_ReadMem(4 bytes @ 0xE000EDF0) - Data: 03 00 03 00  returns 0x01 (0000ms, 1066ms total)
T19DC 001:145 JLINK_WriteU32(0xE000EDF0, 0xA05F0003) -- CPU_WriteMem(4 bytes @ 0xE000EDF0)  returns 0x00 (0001ms, 1067ms total)
T19DC 001:146 JLINK_WriteU32(0xE000EDFC, 0x01000000) -- CPU_WriteMem(4 bytes @ 0xE000EDFC)  returns 0x00 (0000ms, 1067ms total)
T19DC 001:152 JLINK_GetHWStatus(...)  returns 0x00 (0000ms, 1067ms total)
T19DC 001:156 JLINK_GetNumBPUnits(Type = 0xFFFFFF00)  returns 0x06 (0000ms, 1067ms total)
T19DC 001:156 JLINK_GetNumBPUnits(Type = 0xF0)  returns 0x2000 (0000ms, 1067ms total)
T19DC 001:156 JLINK_GetNumWPUnits()  returns 0x04 (0001ms, 1068ms total)
T19DC 001:161 JLINK_GetSpeed()  returns 0x595 (0000ms, 1068ms total)
T19DC 001:164 JLINK_ReadMemU32(0xE000E004, 0x0001 Items, ...) -- CPU_ReadMem(4 bytes @ 0xE000E004) - Data: 02 00 00 00  returns 0x01 (0001ms, 1069ms total)
T19DC 001:165 JLINK_ReadMemU32(0xE000E004, 0x0001 Items, ...) -- CPU_ReadMem(4 bytes @ 0xE000E004) - Data: 02 00 00 00  returns 0x01 (0000ms, 1069ms total)
T19DC 001:165 JLINK_WriteMem(0xE0001000, 0x001C Bytes, ...) - Data: 01 00 00 00 00 00 00 00 00 00 00 00 00 00 00 00 ... -- CPU_WriteMem(28 bytes @ 0xE0001000)  returns 0x1C (0002ms, 1071ms total)
T19DC 001:167 JLINK_ReadMem (0xE0001000, 0x001C Bytes, ...) -- CPU_ReadMem(28 bytes @ 0xE0001000) - Data: 01 00 00 40 00 00 00 00 00 00 00 00 00 00 00 00 ...  returns 0x00 (0000ms, 1071ms total)
T19DC 001:167 JLINK_Halt()  returns 0x00 (0000ms, 1071ms total)
T19DC 001:167 JLINK_IsHalted()  returns TRUE (0000ms, 1071ms total)
T19DC 001:169 JLINK_WriteMem(0x20000000, 0x0440 Bytes, ...) - Data: 00 BE 0A E0 0D 78 2D 06 68 40 08 24 40 00 00 D3 ... -- CPU_WriteMem(1088 bytes @ 0x20000000)  returns 0x440 (0013ms, 1084ms total)
T19DC 001:182 JLINK_WriteReg(R0, 0x00000000)  returns 0x00 (0000ms, 1084ms total)
T19DC 001:182 JLINK_WriteReg(R1, 0x07270E00)  returns 0x00 (0000ms, 1084ms total)
T19DC 001:182 JLINK_WriteReg(R2, 0x00000001)  returns 0x00 (0000ms, 1084ms total)
T19DC 001:182 JLINK_WriteReg(R3, 0x00000000)  returns 0x00 (0000ms, 1084ms total)
T19DC 001:182 JLINK_WriteReg(R4, 0x00000000)  returns 0x00 (0000ms, 1084ms total)
T19DC 001:182 JLINK_WriteReg(R5, 0x00000000)  returns 0x00 (0000ms, 1084ms total)
T19DC 001:182 JLINK_WriteReg(R6, 0x00000000)  returns 0x00 (0000ms, 1084ms total)
T19DC 001:182 JLINK_WriteReg(R7, 0x00000000)  returns 0x00 (0000ms, 1084ms total)
T19DC 001:182 JLINK_WriteReg(R8, 0x00000000)  returns 0x00 (0000ms, 1084ms total)
T19DC 001:182 JLINK_WriteReg(R9, 0x20000438)  returns 0x00 (0000ms, 1084ms total)
T19DC 001:182 JLINK_WriteReg(R10, 0x00000000)  returns 0x00 (0000ms, 1084ms total)
T19DC 001:182 JLINK_WriteReg(R11, 0x00000000)  returns 0x00 (0000ms, 1084ms total)
T19DC 001:182 JLINK_WriteReg(R12, 0x00000000)  returns 0x00 (0000ms, 1084ms total)
T19DC 001:182 JLINK_WriteReg(R13 (SP), 0x20001000)  returns 0x00 (0000ms, 1084ms total)
T19DC 001:182 JLINK_WriteReg(R14, 0x20000001)  returns 0x00 (0000ms, 1084ms total)
T19DC 001:182 JLINK_WriteReg(R15 (PC), 0x20000020)  returns 0x00 (0000ms, 1084ms total)
T19DC 001:182 JLINK_WriteReg(XPSR, 0x01000000)  returns 0x00 (0000ms, 1084ms total)
T19DC 001:182 JLINK_WriteReg(MSP, 0x20001000)  returns 0x00 (0000ms, 1084ms total)
T19DC 001:182 JLINK_WriteReg(PSP, 0x20001000)  returns 0x00 (0000ms, 1084ms total)
T19DC 001:182 JLINK_WriteReg(CFBP, 0x00000000)  returns 0x00 (0000ms, 1084ms total)
T19DC 001:182 JLINK_SetBPEx(Addr = 0x20000000, Type = 0xFFFFFFF2) -- CPU_ReadMem(2 bytes @ 0x20000000)  returns 0x00000001 (0001ms, 1085ms total)
T19DC 001:183 JLINK_Go() -- CPU_WriteMem(2 bytes @ 0x20000000) -- CPU_WriteMem(4 bytes @ 0xE0002008) -- CPU_WriteMem(4 bytes @ 0xE000200C) -- CPU_WriteMem(4 bytes @ 0xE0002010) -- CPU_WriteMem(4 bytes @ 0xE0002014) -- CPU_WriteMem(4 bytes @ 0xE0002018) -- CPU_WriteMem(4 bytes @ 0xE000201C) -- CPU_WriteMem(4 bytes @ 0xE0001004) (0006ms, 1091ms total)
T19DC 001:189 JLINK_IsHalted() -- CPU_ReadMem(2 bytes @ 0x20000000)  returns TRUE (0006ms, 1097ms total)
T19DC 001:195 JLINK_ReadReg(R15 (PC))  returns 0x20000000 (0000ms, 1091ms total)
T19DC 001:195 JLINK_ClrBPEx(BPHandle = 0x00000001)  returns 0x00 (0000ms, 1091ms total)
T19DC 001:195 JLINK_ReadReg(R0)  returns 0x00000000 (0000ms, 1091ms total)
T19DC 001:196 JLINK_WriteReg(R0, 0x00000000)  returns 0x00 (0000ms, 1091ms total)
T19DC 001:196 JLINK_WriteReg(R1, 0x00001000)  returns 0x00 (0000ms, 1091ms total)
T19DC 001:196 JLINK_WriteReg(R2, 0x000000FF)  returns 0x00 (0000ms, 1091ms total)
T19DC 001:196 JLINK_WriteReg(R3, 0x00000000)  returns 0x00 (0000ms, 1091ms total)
T19DC 001:196 JLINK_WriteReg(R4, 0x00000000)  returns 0x00 (0000ms, 1091ms total)
T19DC 001:196 JLINK_WriteReg(R5, 0x00000000)  returns 0x00 (0000ms, 1091ms total)
T19DC 001:196 JLINK_WriteReg(R6, 0x00000000)  returns 0x00 (0000ms, 1091ms total)
T19DC 001:196 JLINK_WriteReg(R7, 0x00000000)  returns 0x00 (0000ms, 1091ms total)
T19DC 001:196 JLINK_WriteReg(R8, 0x00000000)  returns 0x00 (0000ms, 1091ms total)
T19DC 001:196 JLINK_WriteReg(R9, 0x20000438)  returns 0x00 (0000ms, 1091ms total)
T19DC 001:196 JLINK_WriteReg(R10, 0x00000000)  returns 0x00 (0000ms, 1091ms total)
T19DC 001:196 JLINK_WriteReg(R11, 0x00000000)  returns 0x00 (0000ms, 1091ms total)
T19DC 001:196 JLINK_WriteReg(R12, 0x00000000)  returns 0x00 (0000ms, 1091ms total)
T19DC 001:196 JLINK_WriteReg(R13 (SP), 0x20001000)  returns 0x00 (0000ms, 1091ms total)
T19DC 001:196 JLINK_WriteReg(R14, 0x20000001)  returns 0x00 (0000ms, 1091ms total)
T19DC 001:196 JLINK_WriteReg(R15 (PC), 0x20000074)  returns 0x00 (0000ms, 1091ms total)
T19DC 001:196 JLINK_WriteReg(XPSR, 0x01000000)  returns 0x00 (0000ms, 1091ms total)
T19DC 001:196 JLINK_WriteReg(MSP, 0x20001000)  returns 0x00 (0000ms, 1091ms total)
T19DC 001:196 JLINK_WriteReg(PSP, 0x20001000)  returns 0x00 (0000ms, 1091ms total)
T19DC 001:196 JLINK_WriteReg(CFBP, 0x00000000)  returns 0x00 (0000ms, 1091ms total)
T19DC 001:196 JLINK_SetBPEx(Addr = 0x20000000, Type = 0xFFFFFFF2)  returns 0x00000002 (0000ms, 1091ms total)
T19DC 001:196 JLINK_Go() (0003ms, 1094ms total)
T19DC 001:199 JLINK_IsHalted() -- CPU_ReadMem(2 bytes @ 0x20000000)  returns TRUE (0006ms, 1100ms total)
T19DC 001:205 JLINK_ReadReg(R15 (PC))  returns 0x20000000 (0000ms, 1094ms total)
T19DC 001:205 JLINK_ClrBPEx(BPHandle = 0x00000002)  returns 0x00 (0000ms, 1094ms total)
T19DC 001:205 JLINK_ReadReg(R0)  returns 0x00000001 (0000ms, 1094ms total)
T19DC 001:205 JLINK_WriteReg(R0, 0x00000000)  returns 0x00 (0000ms, 1094ms total)
T19DC 001:205 JLINK_WriteReg(R1, 0x00001000)  returns 0x00 (0000ms, 1094ms total)
T19DC 001:205 JLINK_WriteReg(R2, 0x000000FF)  returns 0x00 (0000ms, 1094ms total)
T19DC 001:205 JLINK_WriteReg(R3, 0x00000000)  returns 0x00 (0000ms, 1094ms total)
T19DC 001:205 JLINK_WriteReg(R4, 0x00000000)  returns 0x00 (0000ms, 1094ms total)
T19DC 001:205 JLINK_WriteReg(R5, 0x00000000)  returns 0x00 (0000ms, 1094ms total)
T19DC 001:205 JLINK_WriteReg(R6, 0x00000000)  returns 0x00 (0000ms, 1094ms total)
T19DC 001:205 JLINK_WriteReg(R7, 0x00000000)  returns 0x00 (0000ms, 1094ms total)
T19DC 001:205 JLINK_WriteReg(R8, 0x00000000)  returns 0x00 (0000ms, 1094ms total)
T19DC 001:205 JLINK_WriteReg(R9, 0x20000438)  returns 0x00 (0000ms, 1094ms total)
T19DC 001:205 JLINK_WriteReg(R10, 0x00000000)  returns 0x00 (0000ms, 1094ms total)
T19DC 001:205 JLINK_WriteReg(R11, 0x00000000)  returns 0x00 (0000ms, 1094ms total)
T19DC 001:205 JLINK_WriteReg(R12, 0x00000000)  returns 0x00 (0000ms, 1094ms total)
T19DC 001:205 JLINK_WriteReg(R13 (SP), 0x20001000)  returns 0x00 (0000ms, 1094ms total)
T19DC 001:205 JLINK_WriteReg(R14, 0x20000001)  returns 0x00 (0000ms, 1094ms total)
T19DC 001:205 JLINK_WriteReg(R15 (PC), 0x200000CA)  returns 0x00 (0000ms, 1094ms total)
T19DC 001:205 JLINK_WriteReg(XPSR, 0x01000000)  returns 0x00 (0000ms, 1094ms total)
T19DC 001:205 JLINK_WriteReg(MSP, 0x20001000)  returns 0x00 (0000ms, 1094ms total)
T19DC 001:205 JLINK_WriteReg(PSP, 0x20001000)  returns 0x00 (0000ms, 1094ms total)
T19DC 001:205 JLINK_WriteReg(CFBP, 0x00000000)  returns 0x00 (0000ms, 1094ms total)
T19DC 001:205 JLINK_SetBPEx(Addr = 0x20000000, Type = 0xFFFFFFF2)  returns 0x00000003 (0000ms, 1094ms total)
T19DC 001:205 JLINK_Go() (0002ms, 1096ms total)
T19DC 001:207 JLINK_IsHalted()  returns FALSE (0001ms, 1097ms total)
T19DC 001:252 JLINK_IsHalted() -- CPU_ReadMem(2 bytes @ 0x20000000)  returns TRUE (0006ms, 1102ms total)
T19DC 001:258 JLINK_ReadReg(R15 (PC))  returns 0x20000000 (0000ms, 1096ms total)
T19DC 001:258 JLINK_ClrBPEx(BPHandle = 0x00000003)  returns 0x00 (0000ms, 1096ms total)
T19DC 001:258 JLINK_ReadReg(R0)  returns 0x00000000 (0000ms, 1096ms total)
T19DC 001:258 JLINK_WriteReg(R0, 0x00001000)  returns 0x00 (0000ms, 1096ms total)
T19DC 001:258 JLINK_WriteReg(R1, 0x00001000)  returns 0x00 (0000ms, 1096ms total)
T19DC 001:258 JLINK_WriteReg(R2, 0x000000FF)  returns 0x00 (0000ms, 1096ms total)
T19DC 001:258 JLINK_WriteReg(R3, 0x00000000)  returns 0x00 (0000ms, 1096ms total)
T19DC 001:258 JLINK_WriteReg(R4, 0x00000000)  returns 0x00 (0000ms, 1096ms total)
T19DC 001:258 JLINK_WriteReg(R5, 0x00000000)  returns 0x00 (0000ms, 1096ms total)
T19DC 001:258 JLINK_WriteReg(R6, 0x00000000)  returns 0x00 (0000ms, 1096ms total)
T19DC 001:258 JLINK_WriteReg(R7, 0x00000000)  returns 0x00 (0000ms, 1096ms total)
T19DC 001:258 JLINK_WriteReg(R8, 0x00000000)  returns 0x00 (0000ms, 1096ms total)
T19DC 001:258 JLINK_WriteReg(R9, 0x20000438)  returns 0x00 (0000ms, 1096ms total)
T19DC 001:258 JLINK_WriteReg(R10, 0x00000000)  returns 0x00 (0000ms, 1096ms total)
T19DC 001:258 JLINK_WriteReg(R11, 0x00000000)  returns 0x00 (0000ms, 1096ms total)
T19DC 001:258 JLINK_WriteReg(R12, 0x00000000)  returns 0x00 (0000ms, 1096ms total)
T19DC 001:258 JLINK_WriteReg(R13 (SP), 0x20001000)  returns 0x00 (0000ms, 1096ms total)
T19DC 001:258 JLINK_WriteReg(R14, 0x20000001)  returns 0x00 (0000ms, 1096ms total)
T19DC 001:258 JLINK_WriteReg(R15 (PC), 0x20000074)  returns 0x00 (0000ms, 1096ms total)
T19DC 001:258 JLINK_WriteReg(XPSR, 0x01000000)  returns 0x00 (0000ms, 1096ms total)
T19DC 001:258 JLINK_WriteReg(MSP, 0x20001000)  returns 0x00 (0000ms, 1096ms total)
T19DC 001:258 JLINK_WriteReg(PSP, 0x20001000)  returns 0x00 (0000ms, 1096ms total)
T19DC 001:258 JLINK_WriteReg(CFBP, 0x00000000)  returns 0x00 (0000ms, 1096ms total)
T19DC 001:258 JLINK_SetBPEx(Addr = 0x20000000, Type = 0xFFFFFFF2)  returns 0x00000004 (0000ms, 1096ms total)
T19DC 001:258 JLINK_Go() (0003ms, 1099ms total)
T19DC 001:261 JLINK_IsHalted() -- CPU_ReadMem(2 bytes @ 0x20000000)  returns TRUE (0006ms, 1105ms total)
T19DC 001:267 JLINK_ReadReg(R15 (PC))  returns 0x20000000 (0000ms, 1099ms total)
T19DC 001:267 JLINK_ClrBPEx(BPHandle = 0x00000004)  returns 0x00 (0000ms, 1099ms total)
T19DC 001:267 JLINK_ReadReg(R0)  returns 0x00000001 (0000ms, 1099ms total)
T19DC 001:267 JLINK_WriteReg(R0, 0x00001000)  returns 0x00 (0000ms, 1099ms total)
T19DC 001:267 JLINK_WriteReg(R1, 0x00001000)  returns 0x00 (0000ms, 1099ms total)
T19DC 001:267 JLINK_WriteReg(R2, 0x000000FF)  returns 0x00 (0000ms, 1099ms total)
T19DC 001:267 JLINK_WriteReg(R3, 0x00000000)  returns 0x00 (0000ms, 1099ms total)
T19DC 001:267 JLINK_WriteReg(R4, 0x00000000)  returns 0x00 (0000ms, 1099ms total)
T19DC 001:267 JLINK_WriteReg(R5, 0x00000000)  returns 0x00 (0000ms, 1099ms total)
T19DC 001:267 JLINK_WriteReg(R6, 0x00000000)  returns 0x00 (0000ms, 1099ms total)
T19DC 001:267 JLINK_WriteReg(R7, 0x00000000)  returns 0x00 (0000ms, 1099ms total)
T19DC 001:267 JLINK_WriteReg(R8, 0x00000000)  returns 0x00 (0000ms, 1099ms total)
T19DC 001:267 JLINK_WriteReg(R9, 0x20000438)  returns 0x00 (0000ms, 1099ms total)
T19DC 001:267 JLINK_WriteReg(R10, 0x00000000)  returns 0x00 (0000ms, 1099ms total)
T19DC 001:267 JLINK_WriteReg(R11, 0x00000000)  returns 0x00 (0000ms, 1099ms total)
T19DC 001:267 JLINK_WriteReg(R12, 0x00000000)  returns 0x00 (0000ms, 1099ms total)
T19DC 001:267 JLINK_WriteReg(R13 (SP), 0x20001000)  returns 0x00 (0000ms, 1099ms total)
T19DC 001:267 JLINK_WriteReg(R14, 0x20000001)  returns 0x00 (0000ms, 1099ms total)
T19DC 001:267 JLINK_WriteReg(R15 (PC), 0x200000CA)  returns 0x00 (0000ms, 1099ms total)
T19DC 001:267 JLINK_WriteReg(XPSR, 0x01000000)  returns 0x00 (0000ms, 1099ms total)
T19DC 001:267 JLINK_WriteReg(MSP, 0x20001000)  returns 0x00 (0000ms, 1099ms total)
T19DC 001:267 JLINK_WriteReg(PSP, 0x20001000)  returns 0x00 (0000ms, 1099ms total)
T19DC 001:267 JLINK_WriteReg(CFBP, 0x00000000)  returns 0x00 (0000ms, 1099ms total)
T19DC 001:267 JLINK_SetBPEx(Addr = 0x20000000, Type = 0xFFFFFFF2)  returns 0x00000005 (0000ms, 1099ms total)
T19DC 001:267 JLINK_Go() (0002ms, 1101ms total)
T19DC 001:269 JLINK_IsHalted()  returns FALSE (0001ms, 1102ms total)
T19DC 001:275 JLINK_IsHalted()  returns FALSE (0001ms, 1102ms total)
T19DC 001:277 JLINK_IsHalted() -- CPU_ReadMem(2 bytes @ 0x20000000)  returns TRUE (0006ms, 1107ms total)
T19DC 001:283 JLINK_ReadReg(R15 (PC))  returns 0x20000000 (0000ms, 1101ms total)
T19DC 001:283 JLINK_ClrBPEx(BPHandle = 0x00000005)  returns 0x00 (0000ms, 1101ms total)
T19DC 001:283 JLINK_ReadReg(R0)  returns 0x00000000 (0000ms, 1101ms total)
T19DC 001:283 JLINK_WriteReg(R0, 0x00002000)  returns 0x00 (0000ms, 1101ms total)
T19DC 001:283 JLINK_WriteReg(R1, 0x00001000)  returns 0x00 (0000ms, 1101ms total)
T19DC 001:283 JLINK_WriteReg(R2, 0x000000FF)  returns 0x00 (0000ms, 1101ms total)
T19DC 001:283 JLINK_WriteReg(R3, 0x00000000)  returns 0x00 (0000ms, 1101ms total)
T19DC 001:283 JLINK_WriteReg(R4, 0x00000000)  returns 0x00 (0000ms, 1101ms total)
T19DC 001:283 JLINK_WriteReg(R5, 0x00000000)  returns 0x00 (0000ms, 1101ms total)
T19DC 001:283 JLINK_WriteReg(R6, 0x00000000)  returns 0x00 (0000ms, 1101ms total)
T19DC 001:283 JLINK_WriteReg(R7, 0x00000000)  returns 0x00 (0000ms, 1101ms total)
T19DC 001:283 JLINK_WriteReg(R8, 0x00000000)  returns 0x00 (0000ms, 1101ms total)
T19DC 001:283 JLINK_WriteReg(R9, 0x20000438)  returns 0x00 (0000ms, 1101ms total)
T19DC 001:283 JLINK_WriteReg(R10, 0x00000000)  returns 0x00 (0000ms, 1101ms total)
T19DC 001:283 JLINK_WriteReg(R11, 0x00000000)  returns 0x00 (0000ms, 1101ms total)
T19DC 001:283 JLINK_WriteReg(R12, 0x00000000)  returns 0x00 (0000ms, 1101ms total)
T19DC 001:283 JLINK_WriteReg(R13 (SP), 0x20001000)  returns 0x00 (0000ms, 1101ms total)
T19DC 001:283 JLINK_WriteReg(R14, 0x20000001)  returns 0x00 (0000ms, 1101ms total)
T19DC 001:283 JLINK_WriteReg(R15 (PC), 0x20000074)  returns 0x00 (0000ms, 1101ms total)
T19DC 001:283 JLINK_WriteReg(XPSR, 0x01000000)  returns 0x00 (0000ms, 1101ms total)
T19DC 001:283 JLINK_WriteReg(MSP, 0x20001000)  returns 0x00 (0000ms, 1101ms total)
T19DC 001:283 JLINK_WriteReg(PSP, 0x20001000)  returns 0x00 (0000ms, 1101ms total)
T19DC 001:283 JLINK_WriteReg(CFBP, 0x00000000)  returns 0x00 (0000ms, 1101ms total)
T19DC 001:283 JLINK_SetBPEx(Addr = 0x20000000, Type = 0xFFFFFFF2)  returns 0x00000006 (0000ms, 1101ms total)
T19DC 001:283 JLINK_Go() (0003ms, 1104ms total)
T19DC 001:286 JLINK_IsHalted() -- CPU_ReadMem(2 bytes @ 0x20000000)  returns TRUE (0005ms, 1109ms total)
T19DC 001:291 JLINK_ReadReg(R15 (PC))  returns 0x20000000 (0000ms, 1104ms total)
T19DC 001:291 JLINK_ClrBPEx(BPHandle = 0x00000006)  returns 0x00 (0000ms, 1104ms total)
T19DC 001:291 JLINK_ReadReg(R0)  returns 0x00000001 (0000ms, 1104ms total)
T19DC 001:291 JLINK_WriteReg(R0, 0x00002000)  returns 0x00 (0000ms, 1104ms total)
T19DC 001:291 JLINK_WriteReg(R1, 0x00001000)  returns 0x00 (0000ms, 1104ms total)
T19DC 001:291 JLINK_WriteReg(R2, 0x000000FF)  returns 0x00 (0000ms, 1104ms total)
T19DC 001:291 JLINK_WriteReg(R3, 0x00000000)  returns 0x00 (0001ms, 1105ms total)
T19DC 001:292 JLINK_WriteReg(R4, 0x00000000)  returns 0x00 (0000ms, 1105ms total)
T19DC 001:292 JLINK_WriteReg(R5, 0x00000000)  returns 0x00 (0000ms, 1105ms total)
T19DC 001:292 JLINK_WriteReg(R6, 0x00000000)  returns 0x00 (0000ms, 1105ms total)
T19DC 001:292 JLINK_WriteReg(R7, 0x00000000)  returns 0x00 (0000ms, 1105ms total)
T19DC 001:292 JLINK_WriteReg(R8, 0x00000000)  returns 0x00 (0000ms, 1105ms total)
T19DC 001:292 JLINK_WriteReg(R9, 0x20000438)  returns 0x00 (0000ms, 1105ms total)
T19DC 001:292 JLINK_WriteReg(R10, 0x00000000)  returns 0x00 (0000ms, 1105ms total)
T19DC 001:292 JLINK_WriteReg(R11, 0x00000000)  returns 0x00 (0000ms, 1105ms total)
T19DC 001:292 JLINK_WriteReg(R12, 0x00000000)  returns 0x00 (0000ms, 1105ms total)
T19DC 001:292 JLINK_WriteReg(R13 (SP), 0x20001000)  returns 0x00 (0000ms, 1105ms total)
T19DC 001:292 JLINK_WriteReg(R14, 0x20000001)  returns 0x00 (0000ms, 1105ms total)
T19DC 001:292 JLINK_WriteReg(R15 (PC), 0x200000CA)  returns 0x00 (0000ms, 1105ms total)
T19DC 001:292 JLINK_WriteReg(XPSR, 0x01000000)  returns 0x00 (0000ms, 1105ms total)
T19DC 001:292 JLINK_WriteReg(MSP, 0x20001000)  returns 0x00 (0000ms, 1105ms total)
T19DC 001:292 JLINK_WriteReg(PSP, 0x20001000)  returns 0x00 (0000ms, 1105ms total)
T19DC 001:292 JLINK_WriteReg(CFBP, 0x00000000)  returns 0x00 (0000ms, 1105ms total)
T19DC 001:292 JLINK_SetBPEx(Addr = 0x20000000, Type = 0xFFFFFFF2)  returns 0x00000007 (0000ms, 1105ms total)
T19DC 001:292 JLINK_Go() (0002ms, 1107ms total)
T19DC 001:294 JLINK_IsHalted()  returns FALSE (0001ms, 1108ms total)
T19DC 001:302 JLINK_IsHalted()  returns FALSE (0000ms, 1107ms total)
T19DC 001:304 JLINK_IsHalted() -- CPU_ReadMem(2 bytes @ 0x20000000)  returns TRUE (0005ms, 1112ms total)
T19DC 001:309 JLINK_ReadReg(R15 (PC))  returns 0x20000000 (0000ms, 1107ms total)
T19DC 001:309 JLINK_ClrBPEx(BPHandle = 0x00000007)  returns 0x00 (0000ms, 1107ms total)
T19DC 001:309 JLINK_ReadReg(R0)  returns 0x00000000 (0000ms, 1107ms total)
T19DC 001:310 JLINK_WriteReg(R0, 0x00003000)  returns 0x00 (0000ms, 1107ms total)
T19DC 001:310 JLINK_WriteReg(R1, 0x00001000)  returns 0x00 (0000ms, 1107ms total)
T19DC 001:310 JLINK_WriteReg(R2, 0x000000FF)  returns 0x00 (0000ms, 1107ms total)
T19DC 001:310 JLINK_WriteReg(R3, 0x00000000)  returns 0x00 (0000ms, 1107ms total)
T19DC 001:310 JLINK_WriteReg(R4, 0x00000000)  returns 0x00 (0000ms, 1107ms total)
T19DC 001:310 JLINK_WriteReg(R5, 0x00000000)  returns 0x00 (0000ms, 1107ms total)
T19DC 001:310 JLINK_WriteReg(R6, 0x00000000)  returns 0x00 (0000ms, 1107ms total)
T19DC 001:310 JLINK_WriteReg(R7, 0x00000000)  returns 0x00 (0000ms, 1107ms total)
T19DC 001:310 JLINK_WriteReg(R8, 0x00000000)  returns 0x00 (0000ms, 1107ms total)
T19DC 001:310 JLINK_WriteReg(R9, 0x20000438)  returns 0x00 (0000ms, 1107ms total)
T19DC 001:310 JLINK_WriteReg(R10, 0x00000000)  returns 0x00 (0000ms, 1107ms total)
T19DC 001:310 JLINK_WriteReg(R11, 0x00000000)  returns 0x00 (0000ms, 1107ms total)
T19DC 001:310 JLINK_WriteReg(R12, 0x00000000)  returns 0x00 (0000ms, 1107ms total)
T19DC 001:310 JLINK_WriteReg(R13 (SP), 0x20001000)  returns 0x00 (0000ms, 1107ms total)
T19DC 001:310 JLINK_WriteReg(R14, 0x20000001)  returns 0x00 (0000ms, 1107ms total)
T19DC 001:310 JLINK_WriteReg(R15 (PC), 0x20000074)  returns 0x00 (0000ms, 1107ms total)
T19DC 001:310 JLINK_WriteReg(XPSR, 0x01000000)  returns 0x00 (0000ms, 1107ms total)
T19DC 001:310 JLINK_WriteReg(MSP, 0x20001000)  returns 0x00 (0000ms, 1107ms total)
T19DC 001:310 JLINK_WriteReg(PSP, 0x20001000)  returns 0x00 (0000ms, 1107ms total)
T19DC 001:310 JLINK_WriteReg(CFBP, 0x00000000)  returns 0x00 (0000ms, 1107ms total)
T19DC 001:310 JLINK_SetBPEx(Addr = 0x20000000, Type = 0xFFFFFFF2)  returns 0x00000008 (0000ms, 1107ms total)
T19DC 001:310 JLINK_Go() (0003ms, 1110ms total)
T19DC 001:313 JLINK_IsHalted() -- CPU_ReadMem(2 bytes @ 0x20000000)  returns TRUE (0005ms, 1115ms total)
T19DC 001:318 JLINK_ReadReg(R15 (PC))  returns 0x20000000 (0000ms, 1110ms total)
T19DC 001:318 JLINK_ClrBPEx(BPHandle = 0x00000008)  returns 0x00 (0000ms, 1110ms total)
T19DC 001:318 JLINK_ReadReg(R0)  returns 0x00000001 (0000ms, 1110ms total)
T19DC 001:318 JLINK_WriteReg(R0, 0x00003000)  returns 0x00 (0000ms, 1110ms total)
T19DC 001:318 JLINK_WriteReg(R1, 0x00001000)  returns 0x00 (0000ms, 1110ms total)
T19DC 001:318 JLINK_WriteReg(R2, 0x000000FF)  returns 0x00 (0000ms, 1110ms total)
T19DC 001:318 JLINK_WriteReg(R3, 0x00000000)  returns 0x00 (0000ms, 1110ms total)
T19DC 001:318 JLINK_WriteReg(R4, 0x00000000)  returns 0x00 (0000ms, 1110ms total)
T19DC 001:318 JLINK_WriteReg(R5, 0x00000000)  returns 0x00 (0000ms, 1110ms total)
T19DC 001:318 JLINK_WriteReg(R6, 0x00000000)  returns 0x00 (0000ms, 1110ms total)
T19DC 001:318 JLINK_WriteReg(R7, 0x00000000)  returns 0x00 (0000ms, 1110ms total)
T19DC 001:318 JLINK_WriteReg(R8, 0x00000000)  returns 0x00 (0000ms, 1110ms total)
T19DC 001:318 JLINK_WriteReg(R9, 0x20000438)  returns 0x00 (0001ms, 1111ms total)
T19DC 001:319 JLINK_WriteReg(R10, 0x00000000)  returns 0x00 (0000ms, 1111ms total)
T19DC 001:319 JLINK_WriteReg(R11, 0x00000000)  returns 0x00 (0000ms, 1111ms total)
T19DC 001:319 JLINK_WriteReg(R12, 0x00000000)  returns 0x00 (0000ms, 1111ms total)
T19DC 001:319 JLINK_WriteReg(R13 (SP), 0x20001000)  returns 0x00 (0000ms, 1111ms total)
T19DC 001:319 JLINK_WriteReg(R14, 0x20000001)  returns 0x00 (0000ms, 1111ms total)
T19DC 001:319 JLINK_WriteReg(R15 (PC), 0x200000CA)  returns 0x00 (0000ms, 1111ms total)
T19DC 001:319 JLINK_WriteReg(XPSR, 0x01000000)  returns 0x00 (0000ms, 1111ms total)
T19DC 001:319 JLINK_WriteReg(MSP, 0x20001000)  returns 0x00 (0000ms, 1111ms total)
T19DC 001:319 JLINK_WriteReg(PSP, 0x20001000)  returns 0x00 (0000ms, 1111ms total)
T19DC 001:319 JLINK_WriteReg(CFBP, 0x00000000)  returns 0x00 (0000ms, 1111ms total)
T19DC 001:319 JLINK_SetBPEx(Addr = 0x20000000, Type = 0xFFFFFFF2)  returns 0x00000009 (0000ms, 1111ms total)
T19DC 001:319 JLINK_Go() (0002ms, 1113ms total)
T19DC 001:321 JLINK_IsHalted()  returns FALSE (0001ms, 1114ms total)
T19DC 001:334 JLINK_IsHalted() -- CPU_ReadMem(2 bytes @ 0x20000000)  returns TRUE (0005ms, 1118ms total)
T19DC 001:339 JLINK_ReadReg(R15 (PC))  returns 0x20000000 (0000ms, 1113ms total)
T19DC 001:339 JLINK_ClrBPEx(BPHandle = 0x00000009)  returns 0x00 (0000ms, 1113ms total)
T19DC 001:339 JLINK_ReadReg(R0)  returns 0x00000000 (0000ms, 1113ms total)
T19DC 001:340 JLINK_WriteReg(R0, 0x00004000)  returns 0x00 (0000ms, 1113ms total)
T19DC 001:340 JLINK_WriteReg(R1, 0x00001000)  returns 0x00 (0000ms, 1113ms total)
T19DC 001:340 JLINK_WriteReg(R2, 0x000000FF)  returns 0x00 (0000ms, 1113ms total)
T19DC 001:340 JLINK_WriteReg(R3, 0x00000000)  returns 0x00 (0000ms, 1113ms total)
T19DC 001:340 JLINK_WriteReg(R4, 0x00000000)  returns 0x00 (0000ms, 1113ms total)
T19DC 001:340 JLINK_WriteReg(R5, 0x00000000)  returns 0x00 (0000ms, 1113ms total)
T19DC 001:340 JLINK_WriteReg(R6, 0x00000000)  returns 0x00 (0000ms, 1113ms total)
T19DC 001:340 JLINK_WriteReg(R7, 0x00000000)  returns 0x00 (0000ms, 1113ms total)
T19DC 001:340 JLINK_WriteReg(R8, 0x00000000)  returns 0x00 (0000ms, 1113ms total)
T19DC 001:340 JLINK_WriteReg(R9, 0x20000438)  returns 0x00 (0000ms, 1113ms total)
T19DC 001:340 JLINK_WriteReg(R10, 0x00000000)  returns 0x00 (0000ms, 1113ms total)
T19DC 001:340 JLINK_WriteReg(R11, 0x00000000)  returns 0x00 (0000ms, 1113ms total)
T19DC 001:340 JLINK_WriteReg(R12, 0x00000000)  returns 0x00 (0000ms, 1113ms total)
T19DC 001:340 JLINK_WriteReg(R13 (SP), 0x20001000)  returns 0x00 (0000ms, 1113ms total)
T19DC 001:340 JLINK_WriteReg(R14, 0x20000001)  returns 0x00 (0000ms, 1113ms total)
T19DC 001:340 JLINK_WriteReg(R15 (PC), 0x20000074)  returns 0x00 (0000ms, 1113ms total)
T19DC 001:340 JLINK_WriteReg(XPSR, 0x01000000)  returns 0x00 (0000ms, 1113ms total)
T19DC 001:340 JLINK_WriteReg(MSP, 0x20001000)  returns 0x00 (0000ms, 1113ms total)
T19DC 001:340 JLINK_WriteReg(PSP, 0x20001000)  returns 0x00 (0000ms, 1113ms total)
T19DC 001:340 JLINK_WriteReg(CFBP, 0x00000000)  returns 0x00 (0000ms, 1113ms total)
T19DC 001:340 JLINK_SetBPEx(Addr = 0x20000000, Type = 0xFFFFFFF2)  returns 0x0000000A (0000ms, 1113ms total)
T19DC 001:340 JLINK_Go() (0003ms, 1116ms total)
T19DC 001:343 JLINK_IsHalted() -- CPU_ReadMem(2 bytes @ 0x20000000)  returns TRUE (0005ms, 1121ms total)
T19DC 001:348 JLINK_ReadReg(R15 (PC))  returns 0x20000000 (0000ms, 1116ms total)
T19DC 001:348 JLINK_ClrBPEx(BPHandle = 0x0000000A)  returns 0x00 (0000ms, 1116ms total)
T19DC 001:348 JLINK_ReadReg(R0)  returns 0x00000001 (0000ms, 1116ms total)
T19DC 001:348 JLINK_WriteReg(R0, 0x00004000)  returns 0x00 (0000ms, 1116ms total)
T19DC 001:348 JLINK_WriteReg(R1, 0x00001000)  returns 0x00 (0000ms, 1116ms total)
T19DC 001:348 JLINK_WriteReg(R2, 0x000000FF)  returns 0x00 (0000ms, 1116ms total)
T19DC 001:348 JLINK_WriteReg(R3, 0x00000000)  returns 0x00 (0000ms, 1116ms total)
T19DC 001:348 JLINK_WriteReg(R4, 0x00000000)  returns 0x00 (0000ms, 1116ms total)
T19DC 001:348 JLINK_WriteReg(R5, 0x00000000)  returns 0x00 (0000ms, 1116ms total)
T19DC 001:348 JLINK_WriteReg(R6, 0x00000000)  returns 0x00 (0000ms, 1116ms total)
T19DC 001:348 JLINK_WriteReg(R7, 0x00000000)  returns 0x00 (0000ms, 1116ms total)
T19DC 001:348 JLINK_WriteReg(R8, 0x00000000)  returns 0x00 (0000ms, 1116ms total)
T19DC 001:348 JLINK_WriteReg(R9, 0x20000438)  returns 0x00 (0000ms, 1116ms total)
T19DC 001:348 JLINK_WriteReg(R10, 0x00000000)  returns 0x00 (0001ms, 1117ms total)
T19DC 001:349 JLINK_WriteReg(R11, 0x00000000)  returns 0x00 (0000ms, 1117ms total)
T19DC 001:349 JLINK_WriteReg(R12, 0x00000000)  returns 0x00 (0000ms, 1117ms total)
T19DC 001:349 JLINK_WriteReg(R13 (SP), 0x20001000)  returns 0x00 (0000ms, 1117ms total)
T19DC 001:349 JLINK_WriteReg(R14, 0x20000001)  returns 0x00 (0000ms, 1117ms total)
T19DC 001:349 JLINK_WriteReg(R15 (PC), 0x200000CA)  returns 0x00 (0000ms, 1117ms total)
T19DC 001:349 JLINK_WriteReg(XPSR, 0x01000000)  returns 0x00 (0000ms, 1117ms total)
T19DC 001:349 JLINK_WriteReg(MSP, 0x20001000)  returns 0x00 (0000ms, 1117ms total)
T19DC 001:349 JLINK_WriteReg(PSP, 0x20001000)  returns 0x00 (0000ms, 1117ms total)
T19DC 001:349 JLINK_WriteReg(CFBP, 0x00000000)  returns 0x00 (0000ms, 1117ms total)
T19DC 001:349 JLINK_SetBPEx(Addr = 0x20000000, Type = 0xFFFFFFF2)  returns 0x0000000B (0000ms, 1117ms total)
T19DC 001:349 JLINK_Go() (0002ms, 1119ms total)
T19DC 001:351 JLINK_IsHalted()  returns FALSE (0001ms, 1120ms total)
T19DC 001:356 JLINK_IsHalted()  returns FALSE (0001ms, 1120ms total)
T19DC 001:362 JLINK_IsHalted() -- CPU_ReadMem(2 bytes @ 0x20000000)  returns TRUE (0005ms, 1124ms total)
T19DC 001:367 JLINK_ReadReg(R15 (PC))  returns 0x20000000 (0000ms, 1119ms total)
T19DC 001:367 JLINK_ClrBPEx(BPHandle = 0x0000000B)  returns 0x00 (0000ms, 1119ms total)
T19DC 001:367 JLINK_ReadReg(R0)  returns 0x00000000 (0000ms, 1119ms total)
T19DC 001:368 JLINK_WriteReg(R0, 0x00005000)  returns 0x00 (0000ms, 1119ms total)
T19DC 001:368 JLINK_WriteReg(R1, 0x00001000)  returns 0x00 (0000ms, 1119ms total)
T19DC 001:368 JLINK_WriteReg(R2, 0x000000FF)  returns 0x00 (0000ms, 1119ms total)
T19DC 001:368 JLINK_WriteReg(R3, 0x00000000)  returns 0x00 (0000ms, 1119ms total)
T19DC 001:368 JLINK_WriteReg(R4, 0x00000000)  returns 0x00 (0000ms, 1119ms total)
T19DC 001:368 JLINK_WriteReg(R5, 0x00000000)  returns 0x00 (0000ms, 1119ms total)
T19DC 001:368 JLINK_WriteReg(R6, 0x00000000)  returns 0x00 (0000ms, 1119ms total)
T19DC 001:368 JLINK_WriteReg(R7, 0x00000000)  returns 0x00 (0000ms, 1119ms total)
T19DC 001:368 JLINK_WriteReg(R8, 0x00000000)  returns 0x00 (0000ms, 1119ms total)
T19DC 001:368 JLINK_WriteReg(R9, 0x20000438)  returns 0x00 (0000ms, 1119ms total)
T19DC 001:368 JLINK_WriteReg(R10, 0x00000000)  returns 0x00 (0000ms, 1119ms total)
T19DC 001:368 JLINK_WriteReg(R11, 0x00000000)  returns 0x00 (0000ms, 1119ms total)
T19DC 001:368 JLINK_WriteReg(R12, 0x00000000)  returns 0x00 (0000ms, 1119ms total)
T19DC 001:368 JLINK_WriteReg(R13 (SP), 0x20001000)  returns 0x00 (0000ms, 1119ms total)
T19DC 001:368 JLINK_WriteReg(R14, 0x20000001)  returns 0x00 (0000ms, 1119ms total)
T19DC 001:368 JLINK_WriteReg(R15 (PC), 0x20000074)  returns 0x00 (0000ms, 1119ms total)
T19DC 001:368 JLINK_WriteReg(XPSR, 0x01000000)  returns 0x00 (0000ms, 1119ms total)
T19DC 001:368 JLINK_WriteReg(MSP, 0x20001000)  returns 0x00 (0000ms, 1119ms total)
T19DC 001:368 JLINK_WriteReg(PSP, 0x20001000)  returns 0x00 (0000ms, 1119ms total)
T19DC 001:368 JLINK_WriteReg(CFBP, 0x00000000)  returns 0x00 (0000ms, 1119ms total)
T19DC 001:368 JLINK_SetBPEx(Addr = 0x20000000, Type = 0xFFFFFFF2)  returns 0x0000000C (0000ms, 1119ms total)
T19DC 001:368 JLINK_Go() (0003ms, 1122ms total)
T19DC 001:371 JLINK_IsHalted() -- CPU_ReadMem(2 bytes @ 0x20000000)  returns TRUE (0005ms, 1127ms total)
T19DC 001:376 JLINK_ReadReg(R15 (PC))  returns 0x20000000 (0000ms, 1122ms total)
T19DC 001:376 JLINK_ClrBPEx(BPHandle = 0x0000000C)  returns 0x00 (0000ms, 1122ms total)
T19DC 001:376 JLINK_ReadReg(R0)  returns 0x00000001 (0000ms, 1122ms total)
T19DC 001:376 JLINK_WriteReg(R0, 0x00005000)  returns 0x00 (0000ms, 1122ms total)
T19DC 001:376 JLINK_WriteReg(R1, 0x00001000)  returns 0x00 (0000ms, 1122ms total)
T19DC 001:376 JLINK_WriteReg(R2, 0x000000FF)  returns 0x00 (0000ms, 1122ms total)
T19DC 001:376 JLINK_WriteReg(R3, 0x00000000)  returns 0x00 (0000ms, 1122ms total)
T19DC 001:376 JLINK_WriteReg(R4, 0x00000000)  returns 0x00 (0000ms, 1122ms total)
T19DC 001:376 JLINK_WriteReg(R5, 0x00000000)  returns 0x00 (0000ms, 1122ms total)
T19DC 001:376 JLINK_WriteReg(R6, 0x00000000)  returns 0x00 (0000ms, 1122ms total)
T19DC 001:376 JLINK_WriteReg(R7, 0x00000000)  returns 0x00 (0000ms, 1122ms total)
T19DC 001:376 JLINK_WriteReg(R8, 0x00000000)  returns 0x00 (0000ms, 1122ms total)
T19DC 001:376 JLINK_WriteReg(R9, 0x20000438)  returns 0x00 (0000ms, 1122ms total)
T19DC 001:376 JLINK_WriteReg(R10, 0x00000000)  returns 0x00 (0000ms, 1122ms total)
T19DC 001:376 JLINK_WriteReg(R11, 0x00000000)  returns 0x00 (0000ms, 1122ms total)
T19DC 001:376 JLINK_WriteReg(R12, 0x00000000)  returns 0x00 (0000ms, 1122ms total)
T19DC 001:376 JLINK_WriteReg(R13 (SP), 0x20001000)  returns 0x00 (0000ms, 1122ms total)
T19DC 001:376 JLINK_WriteReg(R14, 0x20000001)  returns 0x00 (0000ms, 1122ms total)
T19DC 001:376 JLINK_WriteReg(R15 (PC), 0x200000CA)  returns 0x00 (0000ms, 1122ms total)
T19DC 001:376 JLINK_WriteReg(XPSR, 0x01000000)  returns 0x00 (0000ms, 1122ms total)
T19DC 001:376 JLINK_WriteReg(MSP, 0x20001000)  returns 0x00 (0000ms, 1122ms total)
T19DC 001:376 JLINK_WriteReg(PSP, 0x20001000)  returns 0x00 (0001ms, 1123ms total)
T19DC 001:377 JLINK_WriteReg(CFBP, 0x00000000)  returns 0x00 (0000ms, 1123ms total)
T19DC 001:377 JLINK_SetBPEx(Addr = 0x20000000, Type = 0xFFFFFFF2)  returns 0x0000000D (0000ms, 1123ms total)
T19DC 001:377 JLINK_Go() (0002ms, 1125ms total)
T19DC 001:379 JLINK_IsHalted()  returns FALSE (0001ms, 1126ms total)
T19DC 001:386 JLINK_IsHalted() -- CPU_ReadMem(2 bytes @ 0x20000000)  returns TRUE (0005ms, 1130ms total)
T19DC 001:391 JLINK_ReadReg(R15 (PC))  returns 0x20000000 (0000ms, 1125ms total)
T19DC 001:391 JLINK_ClrBPEx(BPHandle = 0x0000000D)  returns 0x00 (0000ms, 1125ms total)
T19DC 001:391 JLINK_ReadReg(R0)  returns 0x00000000 (0000ms, 1125ms total)
T19DC 001:392 JLINK_WriteReg(R0, 0x00006000)  returns 0x00 (0000ms, 1125ms total)
T19DC 001:392 JLINK_WriteReg(R1, 0x00001000)  returns 0x00 (0000ms, 1125ms total)
T19DC 001:392 JLINK_WriteReg(R2, 0x000000FF)  returns 0x00 (0000ms, 1125ms total)
T19DC 001:392 JLINK_WriteReg(R3, 0x00000000)  returns 0x00 (0000ms, 1125ms total)
T19DC 001:392 JLINK_WriteReg(R4, 0x00000000)  returns 0x00 (0000ms, 1125ms total)
T19DC 001:392 JLINK_WriteReg(R5, 0x00000000)  returns 0x00 (0000ms, 1125ms total)
T19DC 001:392 JLINK_WriteReg(R6, 0x00000000)  returns 0x00 (0000ms, 1125ms total)
T19DC 001:392 JLINK_WriteReg(R7, 0x00000000)  returns 0x00 (0000ms, 1125ms total)
T19DC 001:392 JLINK_WriteReg(R8, 0x00000000)  returns 0x00 (0000ms, 1125ms total)
T19DC 001:392 JLINK_WriteReg(R9, 0x20000438)  returns 0x00 (0000ms, 1125ms total)
T19DC 001:392 JLINK_WriteReg(R10, 0x00000000)  returns 0x00 (0000ms, 1125ms total)
T19DC 001:392 JLINK_WriteReg(R11, 0x00000000)  returns 0x00 (0000ms, 1125ms total)
T19DC 001:392 JLINK_WriteReg(R12, 0x00000000)  returns 0x00 (0000ms, 1125ms total)
T19DC 001:392 JLINK_WriteReg(R13 (SP), 0x20001000)  returns 0x00 (0000ms, 1125ms total)
T19DC 001:392 JLINK_WriteReg(R14, 0x20000001)  returns 0x00 (0000ms, 1125ms total)
T19DC 001:392 JLINK_WriteReg(R15 (PC), 0x20000074)  returns 0x00 (0000ms, 1125ms total)
T19DC 001:392 JLINK_WriteReg(XPSR, 0x01000000)  returns 0x00 (0000ms, 1125ms total)
T19DC 001:392 JLINK_WriteReg(MSP, 0x20001000)  returns 0x00 (0000ms, 1125ms total)
T19DC 001:392 JLINK_WriteReg(PSP, 0x20001000)  returns 0x00 (0000ms, 1125ms total)
T19DC 001:392 JLINK_WriteReg(CFBP, 0x00000000)  returns 0x00 (0000ms, 1125ms total)
T19DC 001:392 JLINK_SetBPEx(Addr = 0x20000000, Type = 0xFFFFFFF2)  returns 0x0000000E (0000ms, 1125ms total)
T19DC 001:392 JLINK_Go() (0003ms, 1128ms total)
T19DC 001:395 JLINK_IsHalted() -- CPU_ReadMem(2 bytes @ 0x20000000)  returns TRUE (0005ms, 1133ms total)
T19DC 001:401 JLINK_ReadReg(R15 (PC))  returns 0x20000000 (0000ms, 1128ms total)
T19DC 001:401 JLINK_ClrBPEx(BPHandle = 0x0000000E)  returns 0x00 (0000ms, 1128ms total)
T19DC 001:401 JLINK_ReadReg(R0)  returns 0x00000001 (0000ms, 1128ms total)
T19DC 001:401 JLINK_WriteReg(R0, 0x00006000)  returns 0x00 (0000ms, 1128ms total)
T19DC 001:401 JLINK_WriteReg(R1, 0x00001000)  returns 0x00 (0000ms, 1128ms total)
T19DC 001:401 JLINK_WriteReg(R2, 0x000000FF)  returns 0x00 (0000ms, 1128ms total)
T19DC 001:401 JLINK_WriteReg(R3, 0x00000000)  returns 0x00 (0000ms, 1128ms total)
T19DC 001:401 JLINK_WriteReg(R4, 0x00000000)  returns 0x00 (0000ms, 1128ms total)
T19DC 001:401 JLINK_WriteReg(R5, 0x00000000)  returns 0x00 (0000ms, 1128ms total)
T19DC 001:401 JLINK_WriteReg(R6, 0x00000000)  returns 0x00 (0000ms, 1128ms total)
T19DC 001:401 JLINK_WriteReg(R7, 0x00000000)  returns 0x00 (0000ms, 1128ms total)
T19DC 001:401 JLINK_WriteReg(R8, 0x00000000)  returns 0x00 (0000ms, 1128ms total)
T19DC 001:401 JLINK_WriteReg(R9, 0x20000438)  returns 0x00 (0000ms, 1128ms total)
T19DC 001:401 JLINK_WriteReg(R10, 0x00000000)  returns 0x00 (0000ms, 1128ms total)
T19DC 001:401 JLINK_WriteReg(R11, 0x00000000)  returns 0x00 (0000ms, 1128ms total)
T19DC 001:401 JLINK_WriteReg(R12, 0x00000000)  returns 0x00 (0000ms, 1128ms total)
